
**** 02/06/23 18:07:21 ******* PSpice 17.4.0 (Nov 2018) ******* ID# 0 ********

 *******Lab3_1*********


 ****     CIRCUIT DESCRIPTION


******************************************************************************




I 0 1 8m

R1 1 0 3k
H1 1 2 Vmeas 4k
Vmeas 4 3 DC 0
R2 2 0 6k
R3 3 1 2k
R4 4 0 1k
I2 4 3 2m

.TRAN 1m 5m
.PLOT TRAN V(1)
.PROBE
.END

**** 02/06/23 18:07:21 ******* PSpice 17.4.0 (Nov 2018) ******* ID# 0 ********

 *******Lab3_1*********


 ****     INITIAL TRANSIENT SOLUTION       TEMPERATURE =   27.000 DEG C


******************************************************************************



 NODE   VOLTAGE     NODE   VOLTAGE     NODE   VOLTAGE     NODE   VOLTAGE


(    1)    6.3158  (    2)   22.7370  (    3)    2.1053  (    4)    2.1053  




    VOLTAGE SOURCE CURRENTS
    NAME         CURRENT

    Vmeas       -4.105E-03

    TOTAL POWER DISSIPATION   0.00E+00  WATTS


**** 02/06/23 18:07:21 ******* PSpice 17.4.0 (Nov 2018) ******* ID# 0 ********

 *******Lab3_1*********


 ****     TRANSIENT ANALYSIS               TEMPERATURE =   27.000 DEG C


******************************************************************************



  TIME        V(1)        
(*)----------    2.0000E+00   4.0000E+00   6.0000E+00   8.0000E+00   1.0000E+01
                       _ _ _ _ _ _ _ _ _ _ _ _ _ _ _ _ _ _ _ _ _ _ _ _ _ _ _
  0.000E+00  6.316E+00 .            .            . *          .            .
  1.000E-03  6.316E+00 .            .            . *          .            .
  2.000E-03  6.316E+00 .            .            . *          .            .
  3.000E-03  6.316E+00 .            .            . *          .            .
  4.000E-03  6.316E+00 .            .            . *          .            .
  5.000E-03  6.316E+00 .            .            . *          .            .
                       - - - - - - - - - - - - - - - - - - - - - - - - - - - 




          JOB CONCLUDED

**** 02/06/23 18:07:21 ******* PSpice 17.4.0 (Nov 2018) ******* ID# 0 ********

 *******Lab3_1*********


 ****     JOB STATISTICS SUMMARY


******************************************************************************



  License check-out time            =        3.28
  Total job time (using Solver 1)   =         .02
